LTspice 24.1.1 for Windows
Circuit: C:\Users\Vikas\Desktop\submission1\project1.net
Start Time: Thu Feb 13 21:03:41 2025
Ignoring BSIM parameter XL
Ignoring BSIM parameter XW
solver = Normal
Maximum thread count: 12
tnom = 27
temp = 27
method = trap
Warning: Pd = 0 is less than W.
Warning: Ps = 0 is less than W.
Direct Newton iteration for .op point succeeded.
Semiconductor Device Operating Points:
                        --- BSIM3 MOSFETS ---
Name:         M1
Model:      cmosn
Id:        2.78e-05
Vgs:       9.00e-01
Vds:       1.77e+00
Vbs:       0.00e+00
Vth:       4.27e-01
Vdsat:     2.95e-01
Gm:        1.04e-04
Gds:       1.04e-06
Gmb        2.73e-05
Cbd:       0.00e+00
Cbs:       0.00e+00
Cgsov:     3.84e-16
Cgdov:     3.84e-16
Cgbov:     4.46e-19
dQgdVgb:   2.24e-15
dQgdVdb:  -3.76e-16
dQgdVsb:  -1.81e-15
dQddVgb:  -9.67e-16
dQddVdb:   3.80e-16
dQddVsb:   7.73e-16
dQbdVgb:  -3.10e-16
dQbdVdb:   7.49e-19
dQbdVsb:  -1.24e-16


Total elapsed time: 0.078 seconds.

Files loaded:
C:\Users\Vikas\Desktop\submission1\project1.net
C:\Users\Vikas\AppData\Local\LTspice\lib\cmp\standard.mos
C:\Users\Vikas\Desktop\submission1\tsmc018.lib

